time	V(n003)	V(n005)
0.000000000000000e+000	2.358670e-005	1.970519e-001
9.999999824516700e-015	2.360501e-005	1.970522e-001
1.999999964903340e-014	2.362354e-005	1.970526e-001
3.999999929806680e-014	2.366154e-005	1.970533e-001
7.999999859613360e-014	2.374138e-005	1.970548e-001
1.599999971922672e-013	2.391606e-005	1.970582e-001
3.199999943845344e-013	2.432024e-005	1.970667e-001
6.399999887690688e-013	2.527893e-005	1.970886e-001
1.000000000000000e-012	2.649993e-005	1.971183e-001
1.191999996630721e-012	2.685642e-005	1.971310e-001
1.447999992138348e-012	2.726134e-005	1.971474e-001
1.959999983153603e-012	2.787749e-005	1.971782e-001
2.983999965184113e-012	2.862835e-005	1.972320e-001
5.031999929245134e-012	2.934188e-005	1.973194e-001
6.911948559984660e-012	2.961327e-005	1.973794e-001
9.666795814689596e-012	2.984798e-005	1.974415e-001
1.287477733452873e-011	3.018686e-005	1.974944e-001
1.849412946573646e-011	3.089105e-005	1.975646e-001
2.663713594362835e-011	3.193883e-005	1.976444e-001
4.292314889941213e-011	3.393394e-005	1.977619e-001
7.549517481097970e-011	3.765676e-005	1.979124e-001
1.359060180396305e-010	4.413501e-005	1.980668e-001
1.948941974788993e-010	5.001964e-005	1.981383e-001
2.867259308050254e-010	5.827389e-005	1.981735e-001
4.108404015847691e-010	6.745985e-005	1.981624e-001
6.590693431442564e-010	7.970547e-005	1.980611e-001
1.042382278078687e-009	8.688281e-005	1.978369e-001
1.476205453055155e-009	8.070597e-005	1.975376e-001
2.023271849089660e-009	5.755184e-005	1.971271e-001
2.568127949857054e-009	2.440725e-005	1.967070e-001
3.179791957315922e-009	-1.916995e-005	1.962134e-001
3.759640549172396e-009	-6.585071e-005	1.956101e-001
4.116956612591477e-009	-1.024263e-004	1.950007e-001
4.409918377286281e-009	-1.434158e-004	1.942464e-001
4.710296015724954e-009	-1.978909e-004	1.933048e-001
5.052217172037010e-009	-2.706214e-004	1.922084e-001
5.396949588854965e-009	-3.459549e-004	1.912750e-001
5.907487549504422e-009	-4.408290e-004	1.904243e-001
6.378028883246575e-009	-4.872527e-004	1.904301e-001
6.867466801764291e-009	-4.598203e-004	1.916588e-001
7.401639606610414e-009	-3.127713e-004	1.947494e-001
7.900213681521541e-009	-3.535044e-005	1.996528e-001
8.362035372002607e-009	3.683467e-004	2.061761e-001
8.773287124577826e-009	8.561042e-004	2.134452e-001
9.218035749395519e-009	1.496500e-003	2.222261e-001
9.673983889081281e-009	2.221297e-003	2.314122e-001
1.034873941943179e-008	3.306114e-003	2.445859e-001
1.109074121587264e-008	4.424899e-003	2.586362e-001
1.179894759251482e-008	5.377841e-003	2.721343e-001
1.275676278598008e-008	6.509188e-003	2.909527e-001
1.376320714360930e-008	7.550766e-003	3.113227e-001
1.484236303189043e-008	8.514851e-003	3.336526e-001
1.605314275433238e-008	9.428229e-003	3.590071e-001
1.743418445763639e-008	1.028232e-002	3.880200e-001
1.876311074615586e-008	1.091805e-002	4.158269e-001
2.084566628920949e-008	1.164918e-002	4.590552e-001
2.278835881886410e-008	1.212472e-002	4.989618e-001
2.588154903378523e-008	1.263144e-002	5.618483e-001
2.901625798404080e-008	1.255412e-002	6.302273e-001
3.488141019357200e-008	8.641360e-003	8.011245e-001
3.848397056067656e-008	-5.152937e-004	9.932613e-001
4.215910115161578e-008	-1.839889e-002	1.338855e+000
4.608740621507331e-008	-3.995232e-002	1.890167e+000
5.098662973311205e-008	-6.055047e-002	2.792876e+000
5.615920994945834e-008	-5.613573e-002	3.917432e+000
5.852631889144157e-008	8.904754e-003	4.500804e+000
5.950263397749579e-008	1.244994e-001	4.786907e+000
6.019557357688883e-008	2.972210e-001	5.031332e+000
6.054642574008633e-008	4.204174e-001	5.171740e+000
6.090496193323838e-008	5.633491e-001	5.323360e+000
6.130377840687257e-008	7.255567e-001	5.493905e+000
6.210141135414096e-008	1.047291e+000	5.835101e+000
6.331863848345962e-008	1.532193e+000	6.355691e+000
6.445120046503697e-008	1.984029e+000	6.843874e+000
6.621216600574696e-008	2.698574e+000	7.615534e+000
6.871878026631001e-008	3.744791e+000	8.740693e+000
7.286675674610548e-008	5.537107e+000	1.065756e+001
7.820851025635773e-008	7.911527e+000	1.318218e+001
8.602101025635773e-008	1.127666e+001	1.674681e+001
9.383351025635774e-008	1.406749e+001	1.970843e+001
1.005525328223997e-007	1.578103e+001	2.154609e+001
1.059276486788368e-007	1.687747e+001	2.273395e+001
1.118845622375704e-007	1.806027e+001	2.404578e+001
1.165159461099655e-007	1.888588e+001	2.507739e+001
1.185955192266676e-007	1.912861e+001	2.552391e+001
1.215699245286292e-007	1.931118e+001	2.613238e+001
1.232393569396035e-007	1.937759e+001	2.646371e+001
1.256527609815966e-007	1.944173e+001	2.692912e+001
1.278716797027017e-007	1.948490e+001	2.734491e+001
1.303575259880710e-007	1.952015e+001	2.779420e+001
1.333874287920868e-007	1.955189e+001	2.831822e+001
1.365702478383241e-007	1.957643e+001	2.883652e+001
1.408922299871468e-007	1.960053e+001	2.948584e+001
1.453520469911689e-007	1.961871e+001	3.008881e+001
1.498810776986297e-007	1.963255e+001	3.063058e+001
1.522905319758522e-007	1.963842e+001	3.088187e+001
1.537752907972879e-007	1.964160e+001	3.101065e+001
1.548754172541924e-007	1.964377e+001	3.108125e+001
1.561606071372089e-007	1.964608e+001	3.113453e+001
1.575895064260550e-007	1.964826e+001	3.117200e+001
1.591154730357952e-007	1.965007e+001	3.119892e+001
1.605741841696155e-007	1.965134e+001	3.121729e+001
1.630592348058384e-007	1.965274e+001	3.123954e+001
1.667289494699119e-007	1.965401e+001	3.126267e+001
1.705072663696557e-007	1.965472e+001	3.127849e+001
1.751004509038465e-007	1.965517e+001	3.129065e+001
1.805108784051875e-007	1.965543e+001	3.129937e+001
1.880802623550113e-007	1.965562e+001	3.130634e+001
1.958927623550113e-007	1.965572e+001	3.131026e+001
2.037052623550113e-007	1.965577e+001	3.131230e+001
2.115177623550113e-007	1.965579e+001	3.131337e+001
2.193302623550113e-007	1.965581e+001	3.131394e+001
2.271427623550113e-007	1.965582e+001	3.131423e+001
2.349552623550113e-007	1.965582e+001	3.131435e+001
2.427677623550113e-007	1.965582e+001	3.131437e+001
2.505802623550113e-007	1.965582e+001	3.131433e+001
2.583927623550112e-007	1.965582e+001	3.131423e+001
2.662052623550112e-007	1.965582e+001	3.131409e+001
2.740177623550112e-007	1.965582e+001	3.131391e+001
2.818302623550112e-007	1.965581e+001	3.131369e+001
2.896427623550112e-007	1.965581e+001	3.131342e+001
2.974552623550111e-007	1.965581e+001	3.131310e+001
3.052677623550111e-007	1.965580e+001	3.131272e+001
3.130802623550111e-007	1.965580e+001	3.131226e+001
3.208927623550111e-007	1.965579e+001	3.131171e+001
3.287052623550110e-007	1.965578e+001	3.131105e+001
3.365177623550110e-007	1.965577e+001	3.131026e+001
3.443302623550110e-007	1.965576e+001	3.130931e+001
3.521427623550110e-007	1.965575e+001	3.130817e+001
3.599552623550110e-007	1.965574e+001	3.130681e+001
3.677677623550109e-007	1.965572e+001	3.130521e+001
3.755802623550109e-007	1.965569e+001	3.130336e+001
3.833927623550109e-007	1.965567e+001	3.130125e+001
3.912052623550109e-007	1.965564e+001	3.129892e+001
3.990177623550109e-007	1.965561e+001	3.129638e+001
4.068302623550108e-007	1.965557e+001	3.129369e+001
4.146427623550108e-007	1.965554e+001	3.129087e+001
4.224552623550108e-007	1.965550e+001	3.128797e+001
4.302677623550108e-007	1.965546e+001	3.128502e+001
4.380802623550107e-007	1.965542e+001	3.128203e+001
4.458927623550107e-007	1.965538e+001	3.127902e+001
4.537052623550107e-007	1.965534e+001	3.127602e+001
4.615177623550107e-007	1.965530e+001	3.127303e+001
4.693302623550107e-007	1.965526e+001	3.127007e+001
4.771427623550106e-007	1.965522e+001	3.126715e+001
4.849552623550106e-007	1.965518e+001	3.126428e+001
4.927677623550106e-007	1.965514e+001	3.126145e+001
5.005802623550106e-007	1.965511e+001	3.125867e+001
5.083927623550105e-007	1.965507e+001	3.125595e+001
5.162052623550105e-007	1.965503e+001	3.125328e+001
5.240177623550105e-007	1.965500e+001	3.125066e+001
5.318302623550105e-007	1.965496e+001	3.124810e+001
5.396427623550105e-007	1.965493e+001	3.124558e+001
5.474552623550104e-007	1.965489e+001	3.124313e+001
5.552677623550104e-007	1.965486e+001	3.124072e+001
5.630802623550104e-007	1.965483e+001	3.123837e+001
5.708927623550104e-007	1.965480e+001	3.123606e+001
5.787052623550104e-007	1.965477e+001	3.123381e+001
5.865177623550103e-007	1.965473e+001	3.123161e+001
5.943302623550103e-007	1.965471e+001	3.122945e+001
6.021427623550103e-007	1.965467e+001	3.122735e+001
6.099552623550103e-007	1.965465e+001	3.122529e+001
6.177677623550102e-007	1.965462e+001	3.122327e+001
6.255802623550102e-007	1.965459e+001	3.122131e+001
6.333927623550102e-007	1.965457e+001	3.121938e+001
6.412052623550102e-007	1.965454e+001	3.121750e+001
6.490177623550102e-007	1.965451e+001	3.121566e+001
6.568302623550101e-007	1.965449e+001	3.121387e+001
6.646427623550101e-007	1.965446e+001	3.121211e+001
6.724552623550101e-007	1.965444e+001	3.121039e+001
6.802677623550101e-007	1.965442e+001	3.120871e+001
6.880802623550100e-007	1.965439e+001	3.120707e+001
6.958927623550100e-007	1.965437e+001	3.120547e+001
7.037052623550100e-007	1.965435e+001	3.120390e+001
7.115177623550100e-007	1.965433e+001	3.120237e+001
7.193302623550100e-007	1.965431e+001	3.120087e+001
7.271427623550099e-007	1.965429e+001	3.119941e+001
7.349552623550099e-007	1.965427e+001	3.119797e+001
7.427677623550099e-007	1.965425e+001	3.119658e+001
7.505802623550099e-007	1.965423e+001	3.119521e+001
7.662052623550098e-007	1.965419e+001	3.119256e+001
7.740177623550098e-007	1.965417e+001	3.119128e+001
7.818302623550098e-007	1.965416e+001	3.119003e+001
7.896427623550098e-007	1.965414e+001	3.118881e+001
7.974552623550097e-007	1.965412e+001	3.118761e+001
8.052677623550097e-007	1.965411e+001	3.118645e+001
8.130802623550097e-007	1.965409e+001	3.118530e+001
8.208927623550097e-007	1.965408e+001	3.118418e+001
8.287052623550097e-007	1.965406e+001	3.118309e+001
8.365177623550096e-007	1.965405e+001	3.118202e+001
8.443302623550096e-007	1.965403e+001	3.118097e+001
8.521427623550096e-007	1.965401e+001	3.117995e+001
8.599552623550096e-007	1.965400e+001	3.117895e+001
8.677677623550095e-007	1.965399e+001	3.117797e+001
8.755802623550095e-007	1.965397e+001	3.117701e+001
8.833927623550095e-007	1.965396e+001	3.117607e+001
8.912052623550095e-007	1.965395e+001	3.117515e+001
8.990177623550095e-007	1.965394e+001	3.117425e+001
9.068302623550094e-007	1.965392e+001	3.117337e+001
9.146427623550094e-007	1.965391e+001	3.117251e+001
9.224552623550094e-007	1.965390e+001	3.117166e+001
9.380802623550093e-007	1.965388e+001	3.117003e+001
9.537052623550094e-007	1.965385e+001	3.116846e+001
9.615177623550094e-007	1.965384e+001	3.116770e+001
9.693302623550094e-007	1.965383e+001	3.116695e+001
9.771427623550093e-007	1.965382e+001	3.116622e+001
9.849552623550093e-007	1.965381e+001	3.116551e+001
9.927677623550093e-007	1.965386e+001	3.116490e+001
9.927687623550093e-007	1.965386e+001	3.116489e+001
9.927707623550094e-007	1.965385e+001	3.116488e+001
9.927747623550095e-007	1.965383e+001	3.116485e+001
9.927827623550097e-007	1.965382e+001	3.116483e+001
9.927987623550102e-007	1.965381e+001	3.116481e+001
9.928168127641843e-007	1.965381e+001	3.116480e+001
9.928475809601642e-007	1.965380e+001	3.116480e+001
9.929081254166504e-007	1.965380e+001	3.116479e+001
9.930292143296226e-007	1.965380e+001	3.116478e+001
9.932713921555670e-007	1.965380e+001	3.116476e+001
9.947244591112335e-007	1.965380e+001	3.116463e+001
9.966618817187888e-007	1.965380e+001	3.116446e+001
9.966648817187889e-007	1.965380e+001	3.116446e+001
9.966688817187890e-007	1.965380e+001	3.116446e+001
1.000001000000000e-006	1.965379e+001	3.116416e+001
1.000001100000000e-006	1.965379e+001	3.116416e+001
1.000001300000000e-006	1.965379e+001	3.116415e+001
1.000001700000000e-006	1.965379e+001	3.116413e+001
1.000002000000000e-006	1.965379e+001	3.116412e+001
1.000002080000000e-006	1.965379e+001	3.116412e+001
1.000002240000000e-006	1.965379e+001	3.116412e+001
1.000002560000000e-006	1.965379e+001	3.116411e+001
1.000003200000000e-006	1.965379e+001	3.116410e+001
1.000004480000000e-006	1.965379e+001	3.116408e+001
1.000007040000000e-006	1.965379e+001	3.116405e+001
1.000012160000000e-006	1.965379e+001	3.116401e+001
1.000022400000001e-006	1.965379e+001	3.116396e+001
1.000042880000001e-006	1.965379e+001	3.116391e+001
1.000071107791380e-006	1.965379e+001	3.116392e+001
1.000102324993943e-006	1.965379e+001	3.116396e+001
1.000143101952214e-006	1.965379e+001	3.116402e+001
1.000198072621584e-006	1.965379e+001	3.116408e+001
1.000292790738910e-006	1.965380e+001	3.116414e+001
1.000427692366493e-006	1.965380e+001	3.116418e+001
1.000583062807795e-006	1.965380e+001	3.116419e+001
1.000792759351253e-006	1.965380e+001	3.116421e+001
1.001205209754881e-006	1.965380e+001	3.116424e+001
1.002030110562137e-006	1.965380e+001	3.116429e+001
1.003545099419657e-006	1.965380e+001	3.116434e+001
1.005073204435193e-006	1.965380e+001	3.116438e+001
1.007012739706297e-006	1.965380e+001	3.116440e+001
1.008995164343474e-006	1.965380e+001	3.116434e+001
1.010162488344802e-006	1.965380e+001	3.116420e+001
1.010976286384311e-006	1.965379e+001	3.116397e+001
1.011683319194678e-006	1.965378e+001	3.116357e+001
1.012383032141242e-006	1.965377e+001	3.116285e+001
1.013172053109498e-006	1.965375e+001	3.116143e+001
1.013895324006735e-006	1.965371e+001	3.115926e+001
1.014702458794443e-006	1.965364e+001	3.115538e+001
1.015547663803444e-006	1.965353e+001	3.114921e+001
1.016566802535840e-006	1.965334e+001	3.113831e+001
1.017789474470733e-006	1.965302e+001	3.111967e+001
1.019475757450148e-006	1.965244e+001	3.108463e+001
1.021110363187189e-006	1.965173e+001	3.104119e+001
1.022123113106845e-006	1.965122e+001	3.100836e+001
1.023001253759433e-006	1.965070e+001	3.097530e+001
1.023930575791965e-006	1.965010e+001	3.093577e+001
1.025276859338287e-006	1.964909e+001	3.087023e+001
1.027481103898689e-006	1.964715e+001	3.074556e+001
1.029928996786621e-006	1.964459e+001	3.058379e+001
1.032330577856878e-006	1.964157e+001	3.039776e+001
1.035323162543466e-006	1.963693e+001	3.012568e+001
1.039425271301018e-006	1.962860e+001	2.968188e+001
1.045465706355585e-006	1.961132e+001	2.890086e+001
1.051712826156898e-006	1.958374e+001	2.794521e+001
1.057663832174978e-006	1.953859e+001	2.688871e+001
1.063302148643889e-006	1.944994e+001	2.575315e+001
1.069093588272019e-006	1.925059e+001	2.446112e+001
1.072314767520931e-006	1.897590e+001	2.366815e+001
1.075014948499026e-006	1.850188e+001	2.293206e+001
1.077880834365167e-006	1.777492e+001	2.208972e+001
1.080368807220351e-006	1.706537e+001	2.132461e+001
1.083147769171126e-006	1.620693e+001	2.040299e+001
1.087707588371178e-006	1.446697e+001	1.854992e+001
1.090437106833023e-006	1.296910e+001	1.697251e+001
1.091921192318804e-006	1.185967e+001	1.581451e+001
1.093282715961428e-006	1.068723e+001	1.459510e+001
1.094506534725146e-006	9.583245e+000	1.344761e+001
1.095750942567179e-006	8.439964e+000	1.225894e+001
1.096982045904178e-006	7.309135e+000	1.108128e+001
1.098699275503664e-006	5.759496e+000	9.461675e+000
1.100767451061875e-006	4.019374e+000	7.606978e+000
1.104321910614011e-006	1.451491e+000	4.696190e+000
1.106004840555505e-006	5.818855e-001	3.510277e+000
1.106890708735337e-006	3.212724e-001	2.990272e+000
1.107761308969685e-006	1.769401e-001	2.541668e+000
1.109109791541740e-006	4.314276e-002	1.910650e+000
1.110612892812080e-006	-4.324493e-002	1.265835e+000
1.111341636880726e-006	-6.530659e-002	9.784786e-001
1.111706731262151e-006	-7.081275e-002	8.448967e-001
1.111933614189179e-006	-7.288236e-002	7.663850e-001
1.112056437140091e-006	-7.370954e-002	7.258931e-001
1.112139262548264e-006	-7.413188e-002	6.998819e-001
1.112217940369373e-006	-7.443235e-002	6.764756e-001
1.112298651193351e-006	-7.465127e-002	6.544548e-001
1.112448761173500e-006	-7.480456e-002	6.181485e-001
1.112591663887167e-006	-7.468614e-002	5.884813e-001
1.112751143232573e-006	-7.421006e-002	5.612563e-001
1.112920047343021e-006	-7.332317e-002	5.384429e-001
1.113153684471960e-006	-7.147647e-002	5.151137e-001
1.113620958729838e-006	-6.662296e-002	4.815758e-001
1.114107730664585e-006	-6.070539e-002	4.560471e-001
1.114657709995169e-006	-5.359751e-002	4.348455e-001
1.115336947594728e-006	-4.513592e-002	4.151758e-001
1.116326614726913e-006	-3.420532e-002	3.941313e-001
1.117599829040476e-006	-2.265744e-002	3.750014e-001
1.118923860957531e-006	-1.347783e-002	3.615910e-001
1.120333644912530e-006	-6.462100e-003	3.523162e-001
1.122010041188976e-006	-8.051026e-004	3.455010e-001
1.124157659687505e-006	3.783765e-003	3.411628e-001
1.126825422784457e-006	7.196133e-003	3.416595e-001
1.129970765785962e-006	9.768913e-003	3.513567e-001
1.132659578785728e-006	1.153310e-002	3.680759e-001
1.134273172720043e-006	1.246193e-002	3.810511e-001
1.135645878535754e-006	1.304766e-002	3.917834e-001
1.136946136990793e-006	1.329169e-002	3.997829e-001
1.139007934241600e-006	1.312930e-002	4.074246e-001
1.141553708409397e-006	1.236777e-002	4.098739e-001
1.143809437224305e-006	1.140693e-002	4.062973e-001
1.145964688340866e-006	1.047584e-002	3.991086e-001
1.148083669432406e-006	9.745046e-003	3.904246e-001
1.150341429093669e-006	9.246107e-003	3.810362e-001
1.152515119764292e-006	9.031030e-003	3.728036e-001
1.154948605425367e-006	9.023476e-003	3.649762e-001
1.158000162697867e-006	9.177810e-003	3.567947e-001
1.160224369214316e-006	9.329979e-003	3.517317e-001
1.162301204829399e-006	9.463470e-003	3.475552e-001
1.164579084590495e-006	9.577473e-003	3.432938e-001
1.167122657650403e-006	9.666011e-003	3.387720e-001
1.170263873335432e-006	9.736284e-003	3.334746e-001
1.175035639497612e-006	9.809728e-003	3.260717e-001
1.182848139497612e-006	9.912893e-003	3.153720e-001
1.190660639497612e-006	1.000754e-002	3.062470e-001
1.198473139497612e-006	1.008439e-002	2.985453e-001
1.206285639497612e-006	1.014091e-002	2.919179e-001
1.214098139497612e-006	1.018393e-002	2.861338e-001
1.221910639497612e-006	1.021823e-002	2.810363e-001
1.229723139497612e-006	1.024537e-002	2.764989e-001
1.237535639497612e-006	1.026682e-002	2.724236e-001
1.245348139497612e-006	1.028402e-002	2.687368e-001
1.253160639497612e-006	1.029784e-002	2.653800e-001
1.260973139497612e-006	1.030890e-002	2.623061e-001
1.268785639497612e-006	1.031770e-002	2.594773e-001
1.276598139497611e-006	1.032464e-002	2.568623e-001
1.284410639497611e-006	1.033003e-002	2.544355e-001
1.292223139497611e-006	1.033408e-002	2.521754e-001
1.300035639497611e-006	1.033700e-002	2.500637e-001
1.307848139497611e-006	1.033893e-002	2.480851e-001
1.315660639497611e-006	1.034000e-002	2.462263e-001
1.323473139497611e-006	1.034031e-002	2.444759e-001
1.331285639497611e-006	1.033994e-002	2.428239e-001
1.346910639497611e-006	1.033746e-002	2.397820e-001
1.362535639497611e-006	1.033300e-002	2.370430e-001
1.378160639497611e-006	1.032688e-002	2.345617e-001
1.393785639497611e-006	1.031937e-002	2.323020e-001
1.401598139497611e-006	1.031514e-002	2.312460e-001
1.409410639497611e-006	1.031063e-002	2.302349e-001
1.417223139497611e-006	1.030586e-002	2.292658e-001
1.425035639497611e-006	1.030084e-002	2.283362e-001
1.432848139497611e-006	1.029558e-002	2.274438e-001
1.440660639497611e-006	1.029010e-002	2.265862e-001
1.448473139497611e-006	1.028441e-002	2.257615e-001
1.456285639497611e-006	1.027852e-002	2.249680e-001
1.464098139497611e-006	1.027244e-002	2.242038e-001
1.471910639497611e-006	1.026618e-002	2.234675e-001
1.479723139497611e-006	1.025975e-002	2.227575e-001
1.487535639497611e-006	1.025316e-002	2.220726e-001
1.503160639497611e-006	1.023952e-002	2.207730e-001
1.518785639497611e-006	1.022532e-002	2.195596e-001
1.534410639497611e-006	1.021060e-002	2.184245e-001
1.550035639497611e-006	1.019541e-002	2.173609e-001
1.565660639497611e-006	1.017979e-002	2.163627e-001
1.589098139497611e-006	1.015565e-002	2.149765e-001
1.612535639497611e-006	1.013074e-002	2.137097e-001
1.635973139497610e-006	1.010519e-002	2.125490e-001
